!Keysight Technologies,N5242B,MY58421992,A.13.50.09
!Date: Tuesday, April 20, 2021 19:32:50
!Correction: S11(Full 2 Port(1,2)) 
!S21(Full 2 Port(1,2)) 
!S12(Full 2 Port(1,2)) 
!S22(Full 2 Port(1,2)) 
!S2P File: Measurements: S11, S21, S12, S22:
# Hz S  dB   R 50
11550000000 -30.541504 131.74004 -0.16063377 -134.12257 -0.14739175 -39.663559 -29.434483 145.60358
11560000000 -30.249966 125.8549 -0.15995577 -138.18591 -0.14834099 -43.329712 -29.395187 142.61995
11570000000 -29.912859 120.09156 -0.15988876 -142.24294 -0.14856187 -46.985088 -29.321905 139.11755
11580000000 -29.582836 114.55308 -0.1597717 -146.29784 -0.14899001 -50.632835 -29.175085 135.63667
11590000000 -29.203918 109.21979 -0.16006972 -150.34807 -0.1480352 -54.277416 -28.971581 132.38977
11600000000 -28.768641 104.02303 -0.16015576 -154.39072 -0.14665581 -57.919888 -28.685394 129.32776
11610000000 -28.323383 98.598083 -0.16045253 -158.42574 -0.14616601 -61.561569 -28.365255 126.68605
11620000000 -27.898306 93.003975 -0.1605787 -162.45117 -0.14625275 -65.203003 -28.035225 124.13011
11630000000 -27.526609 87.243179 -0.16160682 -166.47517 -0.14642268 -68.829803 -27.725664 121.65627
11640000000 -27.229198 81.70369 -0.16243985 -170.49298 -0.1476053 -72.454437 -27.436918 119.3856
11650000000 -26.985056 76.44091 -0.1625662 -174.50549 -0.14733587 -76.07505 -27.218645 117.14622
11660000000 -26.782495 71.565681 -0.16308968 -178.51198 -0.14800701 -79.692528 -27.051733 114.94946
11670000000 -26.607393 66.973183 -0.16368447 177.48489 -0.14891641 -83.304184 -26.95121 112.52776
11680000000 -26.462624 62.7369 -0.16446818 173.48416 -0.14959157 -86.906097 -26.89677 109.83648
11690000000 -26.308722 58.819317 -0.16554211 169.48854 -0.14979982 -90.505264 -26.888624 106.54964
11700000000 -26.178364 55.183857 -0.16635805 165.49487 -0.15054753 -94.091393 -26.905397 102.67092
11710000000 -26.038803 51.861927 -0.16679119 161.50815 -0.15082833 -97.681328 -26.935123 98.247665
11720000000 -25.890482 48.789322 -0.16701385 157.52821 -0.15105985 -101.26884 -26.968019 93.284126
11730000000 -25.726437 45.915787 -0.16780815 153.54836 -0.1513571 -104.84819 -26.956005 87.781624
11740000000 -25.534754 43.123135 -0.1682 149.57187 -0.15148409 -108.41941 -26.90827 82.01165
11750000000 -25.325911 40.416668 -0.1685091 145.60045 -0.15255174 -111.98947 -26.784636 76.098862
11760000000 -25.090986 37.622818 -0.16929755 141.63438 -0.15315306 -115.55377 -26.604006 70.218513
11770000000 -24.836948 34.567963 -0.16969907 137.67256 -0.15368445 -119.1119 -26.385368 64.550133
11780000000 -24.611933 31.377146 -0.17074715 133.72707 -0.15471691 -122.67139 -26.159088 59.115143
11790000000 -24.410036 27.98958 -0.17114395 129.78484 -0.1559415 -126.21508 -25.941479 53.783207
11800000000 -24.278919 24.657873 -0.17103571 125.84653 -0.15487415 -129.76021 -25.755926 48.534355
11810000000 -24.184061 21.512367 -0.17131385 121.91381 -0.15526007 -133.30534 -25.639765 43.294205
11820000000 -24.106979 18.614313 -0.17193778 117.98617 -0.1566018 -136.83852 -25.569246 38.01482
11830000000 -24.042244 15.924532 -0.17203596 114.0593 -0.15696211 -140.37154 -25.549948 32.621742
11840000000 -23.983664 13.405179 -0.17173627 110.14459 -0.15793926 -143.89886 -25.582182 26.879265
11850000000 -23.949972 11.063347 -0.17219093 106.22966 -0.15868369 -147.42212 -25.630693 20.831354
11860000000 -23.919167 8.985383 -0.17248997 102.31645 -0.16006392 -150.94165 -25.656389 14.293774
11870000000 -23.866293 7.202929 -0.17281118 98.40728 -0.16166259 -154.45348 -25.649584 7.2951593
11880000000 -23.782204 5.5598235 -0.17360307 94.503021 -0.16175933 -157.95941 -25.578745 -0.026671568
11890000000 -23.676456 3.8382974 -0.17436042 90.602188 -0.16209829 -161.4584 -25.452349 -7.4988947
11900000000 -23.569613 1.942055 -0.17558473 86.701782 -0.16199279 -164.9577 -25.27051 -14.962902
11910000000 -23.481733 0.096200526 -0.17597824 82.804741 -0.16276383 -168.45749 -25.048368 -22.290661
11920000000 -23.393414 -1.702457 -0.17652532 78.90731 -0.16331881 -171.93942 -24.801117 -29.454823
11930000000 -23.30628 -3.6040566 -0.17662837 75.018837 -0.16328338 -175.43504 -24.575298 -36.269741
11940000000 -23.232658 -5.6274433 -0.1769495 71.13382 -0.16372322 -178.92116 -24.37624 -42.79353
11950000000 -23.202015 -7.768384 -0.17675026 67.252899 -0.16408367 177.59891 -24.213055 -48.99408
11960000000 -23.23447 -9.8576183 -0.17722209 63.37648 -0.16424982 174.12177 -24.083521 -55.011642
11970000000 -23.286556 -11.650633 -0.17666081 59.507046 -0.16430548 170.64461 -23.996157 -61.007298
11980000000 -23.339874 -13.279846 -0.17661564 55.639507 -0.1644101 167.17438 -23.922316 -67.124847
11990000000 -23.408373 -14.855392 -0.17596599 51.778324 -0.16473745 163.70905 -23.8577 -73.473114
12000000000 -23.499094 -16.343609 -0.17550987 47.923073 -0.16492476 160.24701 -23.798677 -80.061798
12010000000 -23.627062 -17.624409 -0.17500101 44.069366 -0.16588737 156.77957 -23.743628 -86.8582
12020000000 -23.757305 -18.500452 -0.17524095 40.218987 -0.16669779 153.32455 -23.683367 -93.726883
12030000000 -23.855213 -19.183399 -0.1758658 36.376518 -0.16727635 149.87773 -23.591511 -100.47861
12040000000 -23.917408 -19.871056 -0.17571998 32.539013 -0.16762108 146.43681 -23.479116 -107.11903
12050000000 -23.97291 -20.629892 -0.17609523 28.703928 -0.16855535 143.00659 -23.33876 -113.5326
12060000000 -24.021654 -21.463039 -0.17662913 24.865993 -0.16940677 139.58347 -23.198114 -119.72998
12070000000 -24.084267 -22.290749 -0.177379 21.037849 -0.16875786 136.14163 -23.034613 -125.7734
12080000000 -24.135983 -23.172697 -0.17879826 17.226227 -0.16819988 132.71013 -22.908138 -131.80902
12090000000 -24.215681 -24.359316 -0.17996569 13.412062 -0.16703334 129.2753 -22.818008 -137.78996
12100000000 -24.356731 -25.528461 -0.179846 9.5977335 -0.16643468 125.85139 -22.785347 -143.67467
12110000000 -24.56646 -26.372765 -0.17890258 5.7657437 -0.16598387 122.42621 -22.805492 -149.61725
12120000000 -24.794079 -26.720917 -0.17800742 1.9421721 -0.16605678 119.00322 -22.867485 -155.66496
12130000000 -24.991182 -26.544069 -0.17724414 -1.8830245 -0.16527025 115.5891 -22.952557 -161.81631
12140000000 -25.161064 -26.288452 -0.17595881 -5.7121029 -0.16616772 112.17552 -23.052919 -168.21312
12150000000 -25.323755 -25.825346 -0.17594548 -9.5358114 -0.16562511 108.76347 -23.165848 -174.91893
12160000000 -25.491453 -24.939358 -0.17572226 -13.359561 -0.16633141 105.35992 -23.264107 178.11894
12170000000 -25.59096 -23.602074 -0.17650481 -17.16976 -0.16689585 101.94868 -23.373978 170.96634
12180000000 -25.602066 -22.146864 -0.17694613 -20.966785 -0.16588064 98.535683 -23.46921 163.71613
12190000000 -25.53734 -20.760967 -0.17832889 -24.756042 -0.16573752 95.119011 -23.558086 156.44522
12200000000 -25.43326 -19.656231 -0.17973594 -28.541044 -0.16683732 91.71833 -23.639275 149.17758
12210000000 -25.326906 -18.604826 -0.18063582 -32.319214 -0.16873696 88.339241 -23.715757 141.97159
12220000000 -25.19701 -17.624802 -0.18116027 -36.093876 -0.1702136 84.961266 -23.811146 134.7733
12230000000 -25.028931 -16.688284 -0.18183607 -39.866596 -0.17136146 81.577255 -23.932072 127.51688
12240000000 -24.847048 -15.973383 -0.18272513 -43.63726 -0.17298523 78.199974 -24.064465 120.16595
12250000000 -24.671349 -15.430739 -0.18370089 -47.403797 -0.17487848 74.823845 -24.221291 112.67689
12260000000 -24.510178 -14.829198 -0.1844897 -51.171677 -0.17576344 71.451378 -24.376284 104.91528
12270000000 -24.340122 -14.093832 -0.18574397 -54.940872 -0.17702936 68.078018 -24.534418 96.745232
12280000000 -24.133959 -13.288823 -0.18725988 -58.70351 -0.17873856 64.703819 -24.648308 88.288803
12290000000 -23.891033 -12.537144 -0.18945821 -62.470985 -0.18061422 61.343513 -24.733192 79.356155
12300000000 -23.606741 -11.980747 -0.19164076 -66.234688 -0.18263206 57.982868 -24.765659 70.237526
12310000000 -23.304888 -11.650539 -0.19411391 -70.000618 -0.1843528 54.623306 -24.753279 60.954903
12320000000 -22.982323 -11.60083 -0.19693504 -73.760857 -0.187095 51.271 -24.673634 51.857613
12330000000 -22.655945 -11.859068 -0.19981687 -77.514961 -0.19008115 47.927299 -24.543463 42.955841
12340000000 -22.345812 -12.468395 -0.20311899 -81.262848 -0.19285199 44.583591 -24.365023 34.333427
12350000000 -22.066235 -13.238626 -0.20613565 -85.00251 -0.19577146 41.245728 -24.143587 25.994579
12360000000 -21.799631 -14.215549 -0.20904468 -88.737923 -0.19792703 37.905273 -23.902142 17.832764
12370000000 -21.557877 -15.28615 -0.21095873 -92.463028 -0.20087506 34.578548 -23.627878 9.7415447
12380000000 -21.335041 -16.502581 -0.21378168 -96.186234 -0.20336379 31.258307 -23.360786 1.7533987
12390000000 -21.146252 -17.803419 -0.2153552 -99.901024 -0.20585902 27.937342 -23.094587 -6.1218066
12400000000 -20.987936 -19.116634 -0.21738937 -103.61096 -0.20687953 24.618616 -22.82892 -13.89168
12410000000 -20.845297 -20.365824 -0.21879901 -107.32068 -0.20812017 21.308617 -22.551504 -21.482002
12420000000 -20.706867 -21.537203 -0.22001679 -111.02116 -0.21033831 18.000856 -22.258137 -28.972696
12430000000 -20.557812 -22.701107 -0.22165273 -114.72564 -0.21197118 14.694517 -21.94643 -36.194572
12440000000 -20.405203 -24.007418 -0.22357093 -118.42303 -0.21479163 11.389285 -21.617317 -43.213127
12450000000 -20.259773 -25.418503 -0.22649911 -122.11395 -0.21654823 8.0872316 -21.285898 -49.993958
12460000000 -20.123789 -26.912683 -0.22842351 -125.80571 -0.21906999 4.7875814 -20.957365 -56.564152
12470000000 -20.001886 -28.532223 -0.23076418 -129.49304 -0.22099389 1.5011269 -20.642038 -62.95565
12480000000 -19.905846 -30.185406 -0.23256516 -133.1769 -0.22328964 -1.7798415 -20.369083 -69.118599
12490000000 -19.826452 -31.842922 -0.23562659 -136.85571 -0.22497444 -5.0613642 -20.117168 -75.153557
12500000000 -19.7584 -33.48354 -0.23758611 -140.53497 -0.22660476 -8.335288 -19.905952 -81.016579
12510000000 -19.702505 -35.160568 -0.2394978 -144.21021 -0.2274873 -11.610007 -19.717669 -86.777199
12520000000 -19.663498 -36.862984 -0.24074541 -147.88301 -0.22825252 -14.882236 -19.551111 -92.434998
12530000000 -19.663467 -38.546303 -0.24224195 -151.55511 -0.22869116 -18.150936 -19.3943 -98.101677
12540000000 -19.683044 -40.042652 -0.24235097 -155.22409 -0.22900864 -21.417454 -19.246767 -103.74467
12550000000 -19.706083 -41.378525 -0.24226989 -158.88582 -0.22894035 -24.678541 -19.101433 -109.467
12560000000 -19.72086 -42.558319 -0.24253026 -162.5471 -0.2284065 -27.946365 -18.967794 -115.17235
12570000000 -19.723988 -43.740726 -0.24224612 -166.21132 -0.22826564 -31.208839 -18.844841 -120.89614
12580000000 -19.739033 -44.957653 -0.24163945 -169.86703 -0.22770157 -34.474644 -18.73114 -126.50685
12590000000 -19.764772 -46.099621 -0.24101397 -173.51988 -0.22754233 -37.730808 -18.63002 -132.0555
12600000000 -19.783466 -47.157326 -0.24005075 -177.17195 -0.2274799 -40.990025 -18.537252 -137.41068
12610000000 -19.802666 -48.214588 -0.23954611 179.17934 -0.22753663 -44.248753 -18.454222 -142.62338
12620000000 -19.821733 -49.309292 -0.2388072 175.53479 -0.22761361 -47.503777 -18.385321 -147.74622
12630000000 -19.860111 -50.426395 -0.23946202 171.89381 -0.22755554 -50.750561 -18.339666 -152.86206
12640000000 -19.906607 -51.444714 -0.23868081 168.2534 -0.22876836 -53.996994 -18.32321 -157.93668
12650000000 -19.962946 -52.381123 -0.23872338 164.61455 -0.22904634 -57.241558 -18.339609 -163.06876
12660000000 -20.012627 -53.286823 -0.23844281 160.97911 -0.22869496 -60.475788 -18.382654 -168.1954
12670000000 -20.064985 -54.223934 -0.23860678 157.34566 -0.22895831 -63.710926 -18.456949 -173.37764
12680000000 -20.135635 -55.178226 -0.23824839 153.71065 -0.22855651 -66.942657 -18.554796 -178.60823
12690000000 -20.217075 -55.985607 -0.23772959 150.07654 -0.2287458 -70.171936 -18.668037 176.10843
12700000000 -20.292629 -56.622456 -0.23771861 146.44061 -0.22818092 -73.405243 -18.785397 170.73213
12710000000 -20.352051 -57.278427 -0.23806657 142.80534 -0.22726226 -76.630554 -18.913849 165.31821
12720000000 -20.408051 -58.025833 -0.23861423 139.17606 -0.2256079 -79.858459 -19.035927 159.83586
12730000000 -20.470064 -58.761833 -0.23846711 135.55144 -0.22498277 -83.086914 -19.15941 154.32358
12740000000 -20.536196 -59.397423 -0.23800659 131.92747 -0.2241974 -86.30925 -19.285847 148.82251
12750000000 -20.581429 -59.963783 -0.23732123 128.30394 -0.22397417 -89.532555 -19.418001 143.36839
12760000000 -20.596598 -60.728218 -0.23776954 124.68412 -0.22306551 -92.751732 -19.571493 137.85028
12770000000 -20.623426 -61.753613 -0.23744996 121.07241 -0.22335723 -95.966263 -19.756083 132.36264
12780000000 -20.683102 -62.885551 -0.23671231 117.46609 -0.22320533 -99.176872 -19.983543 126.92102
12790000000 -20.780838 -63.97694 -0.2355404 113.86538 -0.22212951 -102.38327 -20.262196 121.45644
12800000000 -20.88376 -64.871666 -0.23396067 110.26308 -0.22137725 -105.58562 -20.584667 115.98545
12810000000 -20.970205 -65.727638 -0.2329461 106.66579 -0.22014365 -108.79162 -20.952623 110.46107
12820000000 -21.061333 -66.728981 -0.23170748 103.06966 -0.21984199 -111.99146 -21.356604 104.70637
12830000000 -21.183544 -67.738831 -0.23100644 99.479568 -0.21832366 -115.18652 -21.795973 98.64473
12840000000 -21.32111 -68.618645 -0.22977947 95.890526 -0.21697901 -118.38424 -22.263243 92.118446
12850000000 -21.462654 -69.295845 -0.22829673 92.301598 -0.21561453 -121.57749 -22.746159 85.134003
12860000000 -21.582277 -69.882042 -0.22720036 88.717339 -0.21442342 -124.77605 -23.25844 77.613953
12870000000 -21.681046 -70.601097 -0.22667912 85.128853 -0.21274714 -127.96304 -23.75889 69.850136
12880000000 -21.803823 -71.443886 -0.22541513 81.540413 -0.21129002 -131.15242 -24.251846 61.860847
12890000000 -21.94989 -72.205452 -0.2240866 77.957291 -0.21021785 -134.34467 -24.707359 53.662395
12900000000 -22.107929 -72.839546 -0.22298475 74.375641 -0.20817541 -137.53384 -25.117794 45.272366
12910000000 -22.260153 -73.480515 -0.22246811 70.793106 -0.20619269 -140.71764 -25.508795 36.624271
12920000000 -22.426805 -74.182564 -0.22024861 67.212029 -0.20506915 -143.89984 -25.876299 27.733921
12930000000 -22.642138 -74.847282 -0.21921423 63.629734 -0.20358859 -147.08322 -26.264187 18.36282
12940000000 -22.892015 -75.278381 -0.21732326 60.051899 -0.20222321 -150.26981 -26.667143 8.5416985
12950000000 -23.157497 -75.430489 -0.21497984 56.472404 -0.20080607 -153.45541 -27.058224 -2.0568113
12960000000 -23.41711 -75.397896 -0.21204403 52.895031 -0.20036454 -156.63911 -27.413021 -13.345197
12970000000 -23.702303 -75.172417 -0.21050033 49.318756 -0.19811268 -159.82249 -27.650387 -25.442427
12980000000 -24.025278 -74.706856 -0.20851767 45.743557 -0.19651352 -163.00137 -27.72662 -38.118019
12990000000 -24.364979 -73.672058 -0.206453 42.170017 -0.1956898 -166.17615 -27.545822 -50.863705
13000000000 -24.66629 -71.976662 -0.2044607 38.591991 -0.19472381 -169.34978 -27.156303 -63.122204
13010000000 -24.891289 -70.040825 -0.20299934 35.016563 -0.19380172 -172.51828 -26.600176 -74.4795
13020000000 -25.054018 -68.000786 -0.20157458 31.443457 -0.19206071 -175.68517 -25.946995 -84.640244
13030000000 -25.20093 -65.968994 -0.2008844 27.873085 -0.19082513 -178.85619 -25.275423 -93.6754
13040000000 -25.323864 -63.737858 -0.19986466 24.30574 -0.18967694 177.98112 -24.634953 -101.86821
13050000000 -25.39769 -61.236561 -0.19941494 20.741692 -0.1888236 174.81108 -24.048908 -109.33388
13060000000 -25.407301 -58.745064 -0.19845705 17.17569 -0.18806085 171.64964 -23.528753 -116.45438
13070000000 -25.356577 -56.475563 -0.19822904 13.615756 -0.18686318 168.48264 -23.071554 -123.1913
13080000000 -25.307621 -54.226074 -0.19793707 10.06053 -0.18625472 165.31862 -22.679346 -129.72363
13090000000 -25.23307 -51.76215 -0.1975366 6.5030875 -0.18742292 162.16425 -22.328468 -136.17407
13100000000 -25.07863 -49.161526 -0.1975888 2.9491322 -0.18773413 159.00999 -22.007101 -142.61281
13110000000 -24.845501 -46.647179 -0.19885635 -0.6032337 -0.18696269 155.84859 -21.686785 -149.07018
13120000000 -24.534464 -44.446346 -0.2001113 -4.1612382 -0.18862332 152.69453 -21.356749 -155.55818
13130000000 -24.166807 -42.61832 -0.20203505 -7.7110372 -0.19035359 149.53009 -21.006775 -161.98997
13140000000 -23.746552 -41.165562 -0.20321067 -11.262853 -0.19243076 146.37953 -20.6544 -168.32794
13150000000 -23.286066 -40.234871 -0.20579015 -14.81283 -0.19496487 143.23463 -20.305704 -174.46085
13160000000 -22.810434 -39.861637 -0.20796923 -18.357365 -0.19699164 140.09325 -19.967224 179.66017
13170000000 -22.352489 -39.996162 -0.21058632 -21.892822 -0.19898693 136.95395 -19.646875 174.09891
13180000000 -21.924589 -40.483536 -0.21296233 -25.428701 -0.20193724 133.82794 -19.358828 168.81412
13190000000 -21.520851 -41.266834 -0.21565123 -28.954832 -0.20381914 130.70007 -19.104422 163.76895
13200000000 -21.142618 -42.211979 -0.21816912 -32.47998 -0.20458546 127.57765 -18.884382 158.92583
13210000000 -20.792202 -43.33897 -0.22083597 -36.001015 -0.20639342 124.45524 -18.708212 154.17409
13220000000 -20.462776 -44.535423 -0.22272672 -39.513706 -0.20819633 121.33328 -18.571627 149.35831
13230000000 -20.152073 -45.804695 -0.22543761 -43.026905 -0.21057561 118.21267 -18.461411 144.50826
13240000000 -19.856853 -47.083549 -0.22795178 -46.534657 -0.212946 115.0948 -18.388245 139.51331
13250000000 -19.559599 -48.442478 -0.23042065 -50.043304 -0.21560074 111.98178 -18.339334 134.37585
13260000000 -19.269327 -49.881931 -0.23330051 -53.549751 -0.21875051 108.87392 -18.307615 129.08411
13270000000 -18.990013 -51.477043 -0.23631501 -57.049431 -0.2215364 105.76585 -18.27812 123.71784
13280000000 -18.72028 -53.134521 -0.2387431 -60.547592 -0.22442548 102.66388 -18.245417 118.34491
13290000000 -18.458666 -54.908897 -0.2416463 -64.041893 -0.228402 99.562477 -18.186113 112.93256
13300000000 -18.216269 -56.799519 -0.24500169 -67.532043 -0.23187684 96.471329 -18.121405 107.59814
13310000000 -17.987553 -58.763309 -0.24785803 -71.021317 -0.23455337 93.376266 -18.03009 102.35418
13320000000 -17.776611 -60.851452 -0.25059974 -74.507355 -0.23845686 90.290611 -17.93961 97.217186
13330000000 -17.583923 -63.065823 -0.25368574 -77.987022 -0.24142933 87.216698 -17.858818 92.16835
13340000000 -17.41218 -65.41552 -0.25599822 -81.461906 -0.2421242 84.13575 -17.807451 87.256889
13350000000 -17.276657 -67.862572 -0.25746775 -84.929604 -0.24388574 81.06353 -17.790829 82.451759
13360000000 -17.181568 -70.29921 -0.25853044 -88.398361 -0.24514708 77.99688 -17.809401 77.760902
13370000000 -17.109165 -72.688057 -0.25860596 -91.865578 -0.24529071 74.935677 -17.861649 73.132881
13380000000 -17.049088 -75.027512 -0.25846249 -95.336174 -0.24595457 71.869476 -17.933626 68.477257
13390000000 -16.999044 -77.3946 -0.25888374 -98.802498 -0.24496579 68.800621 -18.025946 63.66711
13400000000 -16.967478 -79.769623 -0.25893047 -102.26937 -0.24478778 65.743256 -18.143572 58.702431
13410000000 -16.953026 -82.149178 -0.25848028 -105.72563 -0.24365656 62.679951 -18.272507 53.468971
13420000000 -16.948557 -84.442093 -0.25757924 -109.18512 -0.24286117 59.623802 -18.410324 48.041843
13430000000 -16.940304 -86.752869 -0.25663823 -112.64328 -0.24165788 56.570095 -18.550007 42.481777
13440000000 -16.929502 -89.147644 -0.25502762 -116.10065 -0.24080734 53.516056 -18.680395 36.879417
13450000000 -16.928345 -91.685318 -0.25417042 -119.55266 -0.23931639 50.460262 -18.792009 31.296152
13460000000 -16.948841 -94.319183 -0.25250575 -122.99798 -0.23778315 47.410629 -18.887655 25.744036
13470000000 -16.99206 -96.950706 -0.25038335 -126.44218 -0.2355821 44.355755 -18.972687 20.319368
13480000000 -17.046408 -99.603348 -0.24830137 -129.88573 -0.23421822 41.310261 -19.058632 15.021989
13490000000 -17.11237 -102.34664 -0.24543628 -133.3317 -0.23067361 38.275658 -19.169771 9.8298388
13500000000 -17.206963 -105.18172 -0.24271618 -136.77263 -0.22778168 35.223087 -19.30616 4.8196692
13510000000 -17.335468 -108.05959 -0.23856652 -140.21541 -0.22436553 32.182892 -19.480831 -0.083234511
13520000000 -17.484657 -110.85085 -0.23452218 -143.64252 -0.21918678 29.114256 -19.692575 -5.0214581
