!Keysight Technologies,N5242B,MY58421992,A.13.50.09
!Date: Tuesday, April 20, 2021 19:36:26
!Correction: S11(Full 2 Port(1,2)) 
!S21(Full 2 Port(1,2)) 
!S12(Full 2 Port(1,2)) 
!S22(Full 2 Port(1,2)) 
!S2P File: Measurements: S11, S21, S12, S22:
# Hz S  dB   R 50
11550000000 -29.18821 64.462021 -0.15148742 -138.64798 -0.13833922 -44.16087 -28.708691 -168.15558
11560000000 -29.201025 59.052956 -0.14986023 -142.69243 -0.13855974 -47.813004 -28.912889 -170.2317
11570000000 -29.206291 54.04583 -0.14976625 -146.73517 -0.13846011 -51.450886 -29.154968 -172.84805
11580000000 -29.230471 49.309952 -0.14857464 -150.77011 -0.13855225 -55.07917 -29.354382 -175.93332
11590000000 -29.240734 45.118862 -0.14821674 -154.79955 -0.13760217 -58.702888 -29.470257 -179.24217
11600000000 -29.215786 41.441391 -0.14755997 -158.82417 -0.13511579 -62.330669 -29.503574 177.00938
11610000000 -29.123491 37.813118 -0.14797243 -162.84122 -0.1341932 -65.952454 -29.445353 173.31485
11620000000 -28.997627 34.064926 -0.14765109 -166.84995 -0.13350685 -69.575623 -29.34651 169.55682
11630000000 -28.862204 29.926552 -0.1479518 -170.85497 -0.13286881 -73.187637 -29.239582 166.01744
11640000000 -28.792713 25.550909 -0.14732222 -174.85716 -0.13361655 -76.79303 -29.111891 162.76022
11650000000 -28.791424 21.067345 -0.14768955 -178.85194 -0.13292855 -80.396683 -29.030977 159.96338
11660000000 -28.880735 16.705404 -0.1474196 177.15848 -0.13281305 -83.996559 -28.991098 157.52339
11670000000 -29.034178 12.462823 -0.14792986 173.17319 -0.13340034 -87.592628 -29.049688 155.25899
11680000000 -29.279915 8.4445391 -0.14774424 169.18887 -0.13348454 -91.175713 -29.190439 153.03331
11690000000 -29.581411 4.8509369 -0.14795305 165.2122 -0.13309684 -94.760521 -29.479233 150.56732
11700000000 -29.968201 1.593388 -0.14795892 161.23517 -0.13261889 -98.330132 -29.898663 147.67676
11710000000 -30.437605 -1.0193754 -0.14772786 157.26265 -0.13204838 -101.90434 -30.460243 144.34917
11720000000 -30.967928 -2.8690426 -0.14703418 153.29543 -0.13162249 -105.47701 -31.17131 140.33386
11730000000 -31.547688 -3.7868047 -0.14669861 149.33029 -0.13076483 -109.03844 -32.014 135.19437
11740000000 -32.121456 -3.5669832 -0.1464676 145.36845 -0.13004811 -112.59583 -32.968494 128.81516
11750000000 -32.650501 -2.194171 -0.14598203 141.40956 -0.13003522 -116.15632 -33.935272 120.60449
11760000000 -33.052547 0.20747514 -0.14586252 137.45528 -0.129153 -119.70744 -34.842598 110.4725
11770000000 -33.246281 2.9712169 -0.1449056 133.5087 -0.12906849 -123.2523 -35.605095 98.58934
11780000000 -33.315723 5.611073 -0.1448478 129.56956 -0.12825398 -126.80377 -36.125931 85.443054
11790000000 -33.29586 7.7304969 -0.14435121 125.63685 -0.12830657 -130.33899 -36.436302 71.629074
11800000000 -33.352535 9.8192377 -0.14370883 121.70226 -0.12780173 -133.88333 -36.606148 57.572041
11810000000 -33.405384 12.447633 -0.14314844 117.77799 -0.12757437 -137.41896 -36.707298 43.560715
11820000000 -33.3773 15.861352 -0.14276056 113.85477 -0.12824187 -140.94614 -36.706268 29.106844
11830000000 -33.216831 19.732515 -0.14284387 109.93923 -0.12824497 -144.4726 -36.564682 14.201286
11840000000 -32.909412 23.789371 -0.14237393 106.02711 -0.12878193 -147.99196 -36.215408 -1.5239588
11850000000 -32.4865 27.777079 -0.14240324 102.12019 -0.12953089 -151.50909 -35.497288 -16.978895
11860000000 -31.902824 31.591801 -0.14295873 98.212845 -0.13062376 -155.01924 -34.394341 -31.324627
11870000000 -31.12302 34.861835 -0.143224 94.310036 -0.13232407 -158.52266 -33.061752 -43.573158
11880000000 -30.223442 36.963184 -0.14422421 90.412193 -0.13230515 -162.0226 -31.633188 -53.651081
11890000000 -29.318815 37.695263 -0.14477505 86.515335 -0.13281654 -165.51735 -30.266865 -61.852806
11900000000 -28.480251 37.382519 -0.14623259 82.620277 -0.13277777 -169.01175 -28.999809 -68.750786
11910000000 -27.697596 36.727959 -0.14768361 78.729073 -0.13467439 -172.50529 -27.866806 -74.784477
11920000000 -26.95356 35.56958 -0.14871378 74.837776 -0.1357723 -175.98201 -26.861631 -80.243233
11930000000 -26.277092 33.903744 -0.15026066 70.956718 -0.13668056 -179.47163 -26.009033 -85.3731
11940000000 -25.670633 31.903002 -0.15157099 67.076614 -0.13825774 177.05095 -25.29195 -90.397614
11950000000 -25.157867 29.79027 -0.15222329 63.208061 -0.13977085 173.57745 -24.693718 -95.224625
11960000000 -24.72567 27.854998 -0.15386325 59.338589 -0.14085682 170.1082 -24.181524 -99.99189
11970000000 -24.296032 26.029699 -0.1548188 55.478016 -0.14277717 166.6385 -23.733503 -104.88431
11980000000 -23.877424 24.132065 -0.15642937 51.616543 -0.14401133 163.17813 -23.314827 -109.85848
11990000000 -23.491159 22.170219 -0.15775618 47.765583 -0.14629056 159.72241 -22.906418 -115.01361
12000000000 -23.138575 20.195744 -0.15904525 43.920803 -0.14852211 156.27187 -22.506971 -120.25103
12010000000 -22.818357 18.355465 -0.15993987 40.080502 -0.1507255 152.8145 -22.115692 -125.58427
12020000000 -22.485659 16.595535 -0.16235076 36.245125 -0.15381931 149.37384 -21.747656 -130.88902
12030000000 -22.140263 14.710469 -0.1646108 32.417797 -0.1563967 145.94173 -21.386183 -135.93501
12040000000 -21.802954 12.529234 -0.1665218 28.59614 -0.15906543 142.51572 -21.040779 -140.79401
12050000000 -21.493128 10.18448 -0.16851753 24.779549 -0.16181919 139.10629 -20.710585 -145.41676
12060000000 -21.213322 7.6581526 -0.17070302 20.962904 -0.16447209 135.70407 -20.40414 -149.86917
12070000000 -20.96314 5.0960317 -0.17385897 17.158016 -0.16578254 132.2852 -20.108208 -154.18288
12080000000 -20.737053 2.3748045 -0.17687766 13.365659 -0.16650708 128.87076 -19.852434 -158.56909
12090000000 -20.564211 -0.52175015 -0.17985329 9.5854177 -0.16692334 125.46632 -19.641169 -162.97528
12100000000 -20.447701 -3.3619428 -0.18077688 5.7938876 -0.16744746 122.06798 -19.485228 -167.37897
12110000000 -20.374798 -5.985394 -0.18070212 1.9898775 -0.16809857 118.67056 -19.378979 -171.89343
12120000000 -20.31373 -8.4170399 -0.18054731 -1.8104457 -0.16915561 115.27799 -19.308247 -176.48215
12130000000 -20.246862 -10.721437 -0.1801085 -5.6104264 -0.16898815 111.88951 -19.262218 178.86229
12140000000 -20.191757 -13.106112 -0.1800126 -9.4058542 -0.17007701 108.50417 -19.234236 174.0658
12150000000 -20.160568 -15.436802 -0.17963825 -13.203991 -0.16999535 105.12204 -19.222515 169.07356
12160000000 -20.152435 -17.59635 -0.1795087 -16.997377 -0.17027925 101.7484 -19.21133 163.99165
12170000000 -20.133278 -19.631704 -0.17970431 -20.778997 -0.17079 98.367416 -19.223166 158.83681
12180000000 -20.106228 -21.690933 -0.18059419 -24.544167 -0.16957028 94.984802 -19.243914 153.66553
12190000000 -20.076302 -23.784323 -0.18126152 -28.302643 -0.16812307 91.594757 -19.274441 148.54135
12200000000 -20.063219 -25.965475 -0.181549 -32.053875 -0.16878758 88.226624 -19.318855 143.45659
12210000000 -20.078995 -28.11952 -0.181292 -35.800682 -0.16978458 84.879158 -19.380726 138.43407
12220000000 -20.115189 -30.252865 -0.18026751 -39.544666 -0.17015798 81.532776 -19.471127 133.45447
12230000000 -20.163521 -32.334019 -0.17923799 -43.28846 -0.16850059 78.179314 -19.596794 128.48753
12240000000 -20.231445 -34.454144 -0.17767578 -47.029289 -0.16809419 74.833382 -19.754921 123.50315
12250000000 -20.333979 -36.579094 -0.17620021 -50.76976 -0.1673612 71.485443 -19.947863 118.48321
12260000000 -20.480433 -38.580429 -0.17420495 -54.507446 -0.16578642 68.138603 -20.174313 113.36917
12270000000 -20.662663 -40.387745 -0.17214637 -58.252525 -0.16402197 64.790108 -20.441511 108.02743
12280000000 -20.865076 -41.931347 -0.17061566 -61.993801 -0.16256204 61.440681 -20.730768 102.48869
12290000000 -21.081049 -43.256844 -0.1690675 -65.73848 -0.16055588 58.102322 -21.05599 96.634697
12300000000 -21.301573 -44.358162 -0.16771485 -69.482071 -0.15889703 54.761341 -21.405876 90.545288
12310000000 -21.528017 -45.300587 -0.1659807 -73.232094 -0.15685785 51.41523 -21.785965 84.173691
12320000000 -21.753714 -46.058735 -0.16505757 -76.976799 -0.15599173 48.079185 -22.16901 77.653564
12330000000 -21.976257 -46.679329 -0.16416802 -80.71891 -0.15441133 44.748215 -22.563747 70.92141
12340000000 -22.203199 -47.258598 -0.16300875 -84.455498 -0.15344118 41.414536 -22.958593 63.980255
12350000000 -22.450537 -47.718201 -0.16214941 -88.190559 -0.15239827 38.084938 -23.344698 56.802082
12360000000 -22.693741 -48.010395 -0.16089527 -91.918388 -0.15042979 34.749683 -23.741306 49.257206
12370000000 -22.957079 -48.161324 -0.1594706 -95.643394 -0.1494676 31.427849 -24.141575 41.206928
12380000000 -23.214802 -48.128345 -0.15809521 -99.361366 -0.1485948 28.105244 -24.569456 32.708439
12390000000 -23.496075 -47.931614 -0.15639931 -103.07775 -0.14727458 24.785 -25.003572 23.674553
12400000000 -23.796341 -47.471859 -0.15467399 -106.79082 -0.14436398 21.462938 -25.429142 14.079256
12410000000 -24.103971 -46.584618 -0.15311357 -110.50413 -0.14257213 18.14959 -25.807074 3.8499515
12420000000 -24.385519 -45.180328 -0.15120259 -114.21321 -0.14225437 14.836 -26.106382 -7.0981169
12430000000 -24.603874 -43.284111 -0.1501514 -117.92135 -0.14081396 11.522447 -26.274614 -18.497787
12440000000 -24.744652 -41.229046 -0.1497494 -121.62646 -0.14033724 8.2049274 -26.280916 -30.17581
12450000000 -24.817375 -39.127403 -0.14955959 -125.3303 -0.14008084 4.8923306 -26.134405 -41.746178
12460000000 -24.819471 -36.968159 -0.14954169 -129.0323 -0.14028826 1.5776691 -25.856546 -52.990891
12470000000 -24.766371 -34.987663 -0.15005444 -132.73959 -0.14032149 -1.7239126 -25.482866 -63.740967
12480000000 -24.677618 -33.082272 -0.15106224 -136.43953 -0.14133069 -5.0203853 -25.087172 -73.766876
12490000000 -24.535404 -31.29565 -0.15308225 -140.13403 -0.1421403 -8.3208857 -24.658707 -83.271774
12500000000 -24.34873 -29.647451 -0.15462878 -143.82858 -0.14390098 -11.609666 -24.243561 -92.146683
12510000000 -24.120939 -28.268734 -0.1566906 -147.51949 -0.14441167 -14.899805 -23.819721 -100.57383
12520000000 -23.869072 -27.192802 -0.15742616 -151.20625 -0.14578213 -18.187237 -23.405565 -108.53866
12530000000 -23.63427 -26.264061 -0.15979761 -154.89496 -0.14649779 -21.468805 -22.978401 -116.2444
12540000000 -23.378078 -25.312963 -0.16131409 -158.57912 -0.14767495 -24.750099 -22.549782 -123.6575
12550000000 -23.084255 -24.473694 -0.16220342 -162.25491 -0.14885093 -28.026794 -22.106525 -130.88853
12560000000 -22.743439 -23.823469 -0.164087 -165.92903 -0.15018457 -31.302187 -21.676405 -137.85687
12570000000 -22.381386 -23.57933 -0.16552186 -169.60124 -0.15146734 -34.573391 -21.253242 -144.63866
12580000000 -22.03249 -23.661058 -0.16688906 -173.26379 -0.15291543 -37.843204 -20.855791 -151.05934
12590000000 -21.691902 -23.930084 -0.16827139 -176.92325 -0.15513416 -41.107635 -20.480461 -157.24681
12600000000 -21.347158 -24.404446 -0.16944125 179.42081 -0.15734348 -44.371685 -20.132359 -163.05688
12610000000 -21.010578 -25.14031 -0.17164679 175.76927 -0.15957712 -47.631565 -19.809145 -168.57996
12620000000 -20.695925 -26.134602 -0.17351319 172.12291 -0.16187164 -50.887749 -19.514305 -173.94324
12630000000 -20.416693 -27.281746 -0.17613299 168.48302 -0.16435313 -54.135674 -19.251965 -179.22807
12640000000 -20.153732 -28.463261 -0.17800903 164.8468 -0.16807768 -57.378773 -19.025646 175.53328
12650000000 -19.909113 -29.698957 -0.18097484 161.21205 -0.17112082 -60.61969 -18.835096 170.25826
12660000000 -19.673025 -31.078045 -0.18353164 157.58252 -0.17359564 -63.84906 -18.676201 165.00067
12670000000 -19.458525 -32.597443 -0.18588215 153.95685 -0.17660159 -67.074326 -18.545805 159.71994
12680000000 -19.276926 -34.186378 -0.18834279 150.33376 -0.17849149 -70.2966 -18.437927 154.4483
12690000000 -19.111809 -35.736198 -0.19067024 146.70923 -0.18187146 -73.51825 -18.340353 149.17807
12700000000 -18.949959 -37.260948 -0.19244428 143.08548 -0.18347834 -76.736504 -18.244219 143.91798
12710000000 -18.793232 -38.932632 -0.19537319 139.46399 -0.18437298 -79.946999 -18.158663 138.69901
12720000000 -18.658102 -40.727295 -0.19759554 135.84918 -0.18496712 -83.166679 -18.06938 133.5407
12730000000 -18.541668 -42.571072 -0.19944778 132.24026 -0.1868912 -86.380592 -17.984982 128.45549
12740000000 -18.442417 -44.388775 -0.20124614 128.63104 -0.18810205 -89.582115 -17.908384 123.46149
12750000000 -18.340742 -46.227459 -0.20238541 125.02602 -0.18931605 -92.791145 -17.847956 118.57384
12760000000 -18.243795 -48.282047 -0.20407721 121.42632 -0.18964848 -95.987549 -17.808504 113.68709
12770000000 -18.176617 -50.531422 -0.20437036 117.83481 -0.19083978 -99.18219 -17.801331 108.8345
12780000000 -18.149784 -52.813793 -0.204137 114.24923 -0.19162393 -102.37236 -17.835241 104.01888
12790000000 -18.15942 -55.043777 -0.20351654 110.66852 -0.19102569 -105.55718 -17.914192 99.185699
12800000000 -18.181074 -57.1591 -0.20274031 107.08614 -0.1906718 -108.74038 -18.028309 94.376984
12810000000 -18.201897 -59.288746 -0.20210713 103.51142 -0.18933049 -111.92403 -18.176128 89.567001
12820000000 -18.240339 -61.542336 -0.20059618 99.936035 -0.18880527 -115.09989 -18.346083 84.666435
12830000000 -18.311152 -63.772919 -0.19918549 96.364792 -0.18695232 -118.27737 -18.536409 79.612968
12840000000 -18.402777 -65.932014 -0.19757687 92.796936 -0.18532684 -121.45634 -18.735424 74.376945
12850000000 -18.504013 -67.957169 -0.19520375 89.222397 -0.18329301 -124.63191 -18.944441 68.984673
12860000000 -18.602919 -69.961586 -0.19397692 85.656151 -0.18098059 -127.80881 -19.175755 63.413593
12870000000 -18.70009 -72.093391 -0.19215508 82.085846 -0.17844968 -130.97972 -19.411644 57.915218
12880000000 -18.82696 -74.322571 -0.19033179 78.518417 -0.17590031 -134.15128 -19.661755 52.489391
12890000000 -18.981831 -76.513939 -0.1881099 74.949173 -0.1730936 -137.33081 -19.913031 47.162724
12900000000 -19.161894 -78.64798 -0.18563141 71.380333 -0.17057745 -140.50528 -20.167822 41.904507
12910000000 -19.352854 -80.803795 -0.18335715 67.812004 -0.1674026 -143.67719 -20.446218 36.664707
12920000000 -19.568415 -83.021439 -0.18015042 64.244637 -0.16483457 -146.84834 -20.754417 31.420038
12930000000 -19.837971 -85.240242 -0.17720687 60.673611 -0.16163112 -150.02002 -21.12561 26.096239
12940000000 -20.14896 -87.341629 -0.17351791 57.105625 -0.15852939 -153.19432 -21.560308 20.694427
12950000000 -20.494713 -89.302475 -0.1696637 53.537586 -0.1561957 -156.37349 -22.072262 15.06536
12960000000 -20.864805 -91.137604 -0.16530709 49.96759 -0.15415876 -159.54181 -22.662088 9.1921263
12970000000 -21.280685 -92.897102 -0.16182992 46.400303 -0.1493751 -162.7188 -23.319422 2.8580725
12980000000 -21.756765 -94.555946 -0.15774167 42.830894 -0.1457582 -165.8933 -24.045223 -4.0429287
12990000000 -22.30242 -95.883842 -0.15360801 39.260662 -0.14280179 -169.06296 -24.790979 -11.797597
13000000000 -22.885237 -96.678047 -0.15002349 35.687172 -0.14064358 -172.23293 -25.553186 -20.495157
13010000000 -23.479099 -97.160805 -0.14650661 32.116341 -0.13769604 -175.39836 -26.288355 -30.26646
13020000000 -24.093079 -97.35466 -0.14352514 28.540594 -0.13384652 -178.56299 -26.946674 -40.990078
13030000000 -24.76133 -97.367157 -0.14122355 24.970215 -0.13159619 178.26436 -27.494965 -52.518631
13040000000 -25.508219 -96.930183 -0.1387278 21.401228 -0.12850204 175.10286 -27.93189 -64.613678
13050000000 -26.324598 -95.740173 -0.13647224 17.835669 -0.12577252 171.92807 -28.24382 -77.085762
13060000000 -27.18034 -93.762154 -0.13408647 14.264737 -0.12357094 168.76111 -28.459045 -89.923653
13070000000 -28.051807 -90.92115 -0.13291836 10.697558 -0.12121812 165.58983 -28.549984 -102.81832
13080000000 -29.007431 -86.955544 -0.13179064 7.1371851 -0.11888181 162.42036 -28.536827 -115.73626
13090000000 -30.016233 -80.878052 -0.13037747 3.5743144 -0.11931288 159.25725 -28.376265 -128.7496
13100000000 -30.857023 -71.98201 -0.13018228 0.015499979 -0.11919825 156.09489 -28.062649 -141.69826
13110000000 -31.282492 -60.649265 -0.13093443 -3.5491073 -0.11857107 152.9241 -27.5362 -154.23227
13120000000 -31.095821 -48.69854 -0.13182409 -7.1109281 -0.12028891 149.76054 -26.835253 -166.04062
13130000000 -30.362728 -38.288216 -0.1336043 -10.672436 -0.12205924 146.58961 -25.996969 -176.73264
13140000000 -29.272511 -30.379667 -0.13514847 -14.234997 -0.12403923 143.43216 -25.117083 173.69609
13150000000 -28.06414 -25.354258 -0.1375884 -17.792536 -0.12644933 140.27676 -24.249292 165.31294
13160000000 -26.889238 -22.572289 -0.14054102 -21.346823 -0.12967886 137.12489 -23.430994 157.91296
13170000000 -25.827099 -21.359961 -0.14362939 -24.892923 -0.13248289 133.97664 -22.689793 151.3699
13180000000 -24.887444 -21.108282 -0.14681754 -28.437441 -0.13563414 130.84035 -22.036085 145.41354
13190000000 -24.044245 -21.511103 -0.15044297 -31.976187 -0.13837564 127.70396 -21.467134 139.91739
13200000000 -23.279129 -22.324776 -0.15433827 -35.507637 -0.14061069 124.57442 -20.975283 134.72675
13210000000 -22.591051 -23.429785 -0.15844707 -39.035828 -0.14350736 121.44011 -20.553391 129.63272
13220000000 -21.954767 -24.707796 -0.1623331 -42.559799 -0.14725372 118.30711 -20.183836 124.46983
13230000000 -21.3606 -26.146509 -0.16669105 -46.084042 -0.15128988 115.18189 -19.846239 119.27808
13240000000 -20.800861 -27.669006 -0.17093971 -49.598335 -0.15599602 112.05475 -19.546429 113.93657
13250000000 -20.261091 -29.402035 -0.17628324 -53.10981 -0.16166934 108.93878 -19.264212 108.50465
13260000000 -19.748556 -31.289845 -0.18193047 -56.619537 -0.16723262 105.82465 -18.988375 102.98826
13270000000 -19.268879 -33.383839 -0.18786216 -60.124504 -0.17287788 102.71564 -18.71666 97.558472
13280000000 -18.813913 -35.580364 -0.19355771 -63.621914 -0.17882113 99.610725 -18.443319 92.265968
13290000000 -18.384499 -37.949108 -0.19944799 -67.116585 -0.18613173 96.513374 -18.149345 87.154182
13300000000 -17.991634 -40.429646 -0.20591217 -70.603897 -0.19198522 93.422607 -17.864248 82.260918
13310000000 -17.625809 -43.014709 -0.21191701 -74.086945 -0.19849201 90.33522 -17.574764 77.61396
13320000000 -17.293125 -45.723358 -0.21811713 -77.568115 -0.20550463 87.255127 -17.305613 73.138824
13330000000 -16.993721 -48.54855 -0.224077 -81.040871 -0.21139257 84.186882 -17.065748 68.796921
13340000000 -16.728205 -51.485207 -0.22953264 -84.50444 -0.21565862 81.119339 -16.869162 64.55455
13350000000 -16.509092 -54.450607 -0.23391542 -87.959694 -0.22030969 78.052849 -16.722734 60.374275
13360000000 -16.330921 -57.356174 -0.23761217 -91.420311 -0.22412588 74.998131 -16.621359 56.268555
13370000000 -16.178364 -60.191669 -0.24054033 -94.875694 -0.227211 71.949699 -16.559221 52.177608
13380000000 -16.040632 -62.985641 -0.24297179 -98.330986 -0.23051433 68.895912 -16.518087 48.054508
13390000000 -15.917086 -65.801529 -0.24643523 -101.78164 -0.23240429 65.847092 -16.495981 43.778477
13400000000 -15.813232 -68.608696 -0.24851349 -105.22963 -0.23441029 62.80484 -16.491346 39.365166
13410000000 -15.726403 -71.402802 -0.25071675 -108.66788 -0.23650068 59.757149 -16.489594 34.751667
13420000000 -15.648082 -74.148865 -0.25207621 -112.11163 -0.23837407 56.718136 -16.494776 30.021729
13430000000 -15.569701 -76.939819 -0.25398138 -115.55399 -0.23896982 53.686287 -16.50069 25.249168
13440000000 -15.493186 -79.825249 -0.25458756 -118.98544 -0.24027233 50.659599 -16.502108 20.527208
13450000000 -15.433383 -82.844063 -0.25547743 -122.41036 -0.24115375 47.632317 -16.495283 15.897269
13460000000 -15.395965 -85.949326 -0.25566787 -125.8345 -0.24056961 44.602242 -16.48564 11.387202
13470000000 -15.380018 -89.074753 -0.25520769 -129.25418 -0.24080576 41.568424 -16.48016 7.0292039
13480000000 -15.377456 -92.238556 -0.25425383 -132.67401 -0.24030471 38.553001 -16.487988 2.8260407
13490000000 -15.391058 -95.489769 -0.25282365 -136.08893 -0.23812249 35.545101 -16.529863 -1.2694895
13500000000 -15.433389 -98.838699 -0.25004187 -139.50081 -0.2355888 32.518883 -16.602652 -5.2024088
13510000000 -15.509493 -102.20759 -0.24676415 -142.9136 -0.23210482 29.509676 -16.717667 -9.0455761
13520000000 -15.605627 -105.53615 -0.24251324 -146.31598 -0.22692341 26.467384 -16.867432 -12.894664
