!Keysight Technologies,N5242B,MY58421992,A.13.50.09
!Date: Tuesday, April 20, 2021 19:41:28
!Correction: S11(Full 2 Port(1,2)) 
!S21(Full 2 Port(1,2)) 
!S12(Full 2 Port(1,2)) 
!S22(Full 2 Port(1,2)) 
!S2P File: Measurements: S11, S21, S12, S22:
# Hz S  dB   R 50
11550000000 -27.07571 96.147369 -0.28787678 -137.30095 -0.27353325 -42.842922 -26.149786 172.5323
11560000000 -27.488323 91.941582 -0.28590804 -141.42043 -0.27342066 -46.558098 -26.606945 168.84543
11570000000 -27.902985 87.9394 -0.28488931 -145.53424 -0.27222526 -50.27655 -27.088114 164.75395
11580000000 -28.345793 84.100304 -0.28382227 -149.64355 -0.27139416 -53.986214 -27.557137 160.35834
11590000000 -28.76078 80.425125 -0.28244251 -153.75191 -0.27040389 -57.691814 -27.995066 155.98875
11600000000 -29.15127 76.821793 -0.28120467 -157.85147 -0.26868764 -61.396488 -28.395069 151.54033
11610000000 -29.534327 72.866119 -0.28061149 -161.94894 -0.2680485 -65.096352 -28.75787 147.58336
11620000000 -29.937918 68.574974 -0.28004932 -166.03601 -0.26770651 -68.794502 -29.105066 143.86732
11630000000 -30.382481 63.749836 -0.27947709 -170.11804 -0.26724622 -72.479027 -29.477436 140.60643
11640000000 -30.93104 58.445259 -0.278927 -174.19919 -0.26597619 -76.164955 -29.857954 137.9402
11650000000 -31.593897 52.873333 -0.2779226 -178.27713 -0.26500222 -79.851555 -30.338207 135.8835
11660000000 -32.407024 47.166462 -0.27734265 177.6505 -0.26478645 -83.534462 -30.912502 134.66908
11670000000 -33.366207 41.225819 -0.2764695 173.5817 -0.26471889 -87.210159 -31.61949 134.11366
11680000000 -34.527927 35.121166 -0.27603018 169.51199 -0.26466614 -90.878899 -32.460346 134.21277
11690000000 -35.859612 28.818027 -0.27586055 165.44902 -0.26412612 -94.549133 -33.492664 134.75674
11700000000 -37.510433 22.137484 -0.27629066 161.38568 -0.26406112 -98.200325 -34.710846 135.61571
11710000000 -39.570042 15.386521 -0.27576819 157.32829 -0.26380494 -101.85824 -36.191792 137.26949
11720000000 -42.198681 8.173295 -0.27492985 153.27748 -0.26294133 -105.5132 -37.974781 139.86812
11730000000 -45.788158 0.53087974 -0.27512583 149.22665 -0.2624495 -109.15672 -40.120438 143.73528
11740000000 -51.303665 -9.814599 -0.2746883 145.1765 -0.2607432 -112.7966 -42.664425 150.82127
11750000000 -63.67099 -49.528137 -0.27398294 141.13351 -0.26087776 -116.44023 -45.417324 162.15889
11760000000 -56.555347 -173.53433 -0.27420712 137.09573 -0.25963202 -120.08045 -47.933697 -178.74866
11770000000 -50.560909 174.9496 -0.27396944 133.06163 -0.25983751 -123.70813 -49.024719 -153.35728
11780000000 -47.301811 170.12123 -0.27330399 129.03853 -0.2585555 -127.34651 -48.021362 -132.9212
11790000000 -45.260941 167.64705 -0.27261096 125.01783 -0.25860843 -130.97447 -46.244057 -121.03427
11800000000 -43.382172 166.3703 -0.27213562 120.99832 -0.25831667 -134.60359 -44.37611 -116.6673
11810000000 -41.770813 164.23184 -0.27135763 116.9833 -0.25781024 -138.21918 -42.557789 -116.44959
11820000000 -40.379894 160.99811 -0.27148235 112.9759 -0.25876236 -141.83473 -40.945976 -117.94311
11830000000 -39.148415 156.86549 -0.27108788 108.97598 -0.2582109 -145.44896 -39.419983 -120.37013
11840000000 -38.061531 151.87816 -0.27047727 104.97741 -0.25873747 -149.05515 -37.933025 -122.86721
11850000000 -37.075623 146.74657 -0.27033687 100.98196 -0.25948235 -152.65889 -36.613934 -125.17415
11860000000 -36.235409 140.8488 -0.27054116 96.994537 -0.26007897 -156.25584 -35.446873 -126.57302
11870000000 -35.479008 134.08969 -0.27037346 93.004112 -0.26131955 -159.85016 -34.435276 -127.32394
11880000000 -34.842033 126.96301 -0.27077726 89.015221 -0.2604087 -163.43816 -33.535275 -127.30018
11890000000 -34.338539 119.60444 -0.27090946 85.033157 -0.26111981 -167.02596 -32.734829 -127.12486
11900000000 -33.961781 112.33083 -0.27116334 81.048676 -0.26090997 -170.6046 -31.993961 -126.91658
11910000000 -33.604103 105.10714 -0.27122682 77.068153 -0.26223704 -174.18655 -31.334192 -126.98565
11920000000 -33.302948 97.815819 -0.27168888 73.088623 -0.26254463 -177.75381 -30.761606 -127.36778
11930000000 -33.064964 90.678314 -0.27181956 69.116783 -0.26258576 178.67099 -30.314804 -128.23605
11940000000 -32.873207 83.564751 -0.27137685 65.145691 -0.26269871 175.10329 -29.960194 -129.47794
11950000000 -32.730892 76.813675 -0.2715241 61.179863 -0.26220006 171.53882 -29.697735 -130.95566
11960000000 -32.610542 70.800789 -0.27166179 57.216969 -0.26231375 167.97868 -29.472618 -132.67395
11970000000 -32.443844 64.86866 -0.27122161 53.263752 -0.26259625 164.41711 -29.262623 -134.92212
11980000000 -32.251068 58.909447 -0.27128327 49.304203 -0.26296973 160.86546 -29.028124 -137.43039
11990000000 -32.048607 53.111229 -0.27102557 45.362854 -0.26279962 157.31178 -28.77837 -140.22572
12000000000 -31.82361 47.446068 -0.27052009 41.417007 -0.26356718 153.76328 -28.509291 -143.1694
12010000000 -31.593094 42.000576 -0.26970848 37.478035 -0.26460969 150.21034 -28.208323 -146.09433
12020000000 -31.286341 36.530567 -0.27082488 33.548973 -0.26540372 146.67126 -27.901037 -148.86096
12030000000 -30.959986 30.869703 -0.27115399 29.618853 -0.26548335 143.13861 -27.573126 -151.28421
12040000000 -30.61529 24.758142 -0.27138811 25.695316 -0.26628631 139.60927 -27.235279 -153.46054
12050000000 -30.274378 18.426363 -0.27210131 21.771183 -0.26687846 136.09218 -26.900331 -155.41415
12060000000 -29.954405 11.759631 -0.27251628 17.849213 -0.26774257 132.57906 -26.587742 -157.1981
12070000000 -29.668482 5.0498223 -0.27299726 13.93839 -0.26778451 129.04877 -26.273655 -158.80081
12080000000 -29.400866 -1.8407996 -0.27494371 10.030915 -0.26728424 125.52769 -26.00547 -160.49388
12090000000 -29.20059 -8.9233789 -0.27590629 6.133594 -0.26670453 122.00793 -25.777203 -162.26151
12100000000 -29.047419 -15.768098 -0.27627599 2.2263 -0.26613247 118.49511 -25.600716 -163.98338
12110000000 -28.936897 -22.204798 -0.2756834 -1.6894301 -0.26634219 114.98345 -25.472128 -165.99817
12120000000 -28.824978 -28.33061 -0.27524757 -5.6053853 -0.2669602 111.47836 -25.384256 -168.23447
12130000000 -28.684519 -34.084015 -0.274506 -9.5142517 -0.26603484 107.97975 -25.321169 -170.5881
12140000000 -28.52952 -39.812557 -0.27354139 -13.423151 -0.2668153 104.48041 -25.276108 -173.1442
12150000000 -28.378021 -45.318226 -0.27350733 -17.331446 -0.26663002 100.98431 -25.243984 -175.94623
12160000000 -28.241852 -50.558628 -0.27275676 -21.23913 -0.26669678 97.498093 -25.181894 -178.92778
12170000000 -28.066885 -55.511757 -0.27298149 -25.131718 -0.26658136 94.004669 -25.126818 177.98126
12180000000 -27.865461 -60.320442 -0.27381122 -29.012335 -0.26521966 90.509987 -25.064924 174.79364
12190000000 -27.640789 -65.019745 -0.27405164 -32.888794 -0.26367453 87.010948 -24.99897 171.65826
12200000000 -27.405027 -69.736816 -0.27451363 -36.756542 -0.26421407 83.524666 -24.941599 168.63605
12210000000 -27.189983 -74.504562 -0.27410623 -40.6241 -0.26527077 80.057022 -24.879221 165.8045
12220000000 -26.986679 -79.283119 -0.27359313 -44.486847 -0.26611984 76.58934 -24.824526 163.23488
12230000000 -26.799349 -83.995697 -0.27351752 -48.346252 -0.2655398 73.119453 -24.778111 160.79883
12240000000 -26.628403 -88.761208 -0.27325505 -52.20652 -0.26561704 69.65403 -24.748001 158.36066
12250000000 -26.487343 -93.632111 -0.27320412 -56.063553 -0.26625082 66.191887 -24.747356 155.98482
12260000000 -26.396963 -98.53817 -0.27288461 -59.918369 -0.26601714 62.728233 -24.787853 153.53697
12270000000 -26.355896 -103.38773 -0.27254978 -63.771584 -0.26607293 59.268967 -24.89267 151.15488
12280000000 -26.359318 -108.11315 -0.27215913 -67.624886 -0.2654767 55.80584 -25.020718 148.6861
12290000000 -26.406942 -112.65565 -0.27192882 -71.481865 -0.26495478 52.3563 -25.195446 146.20395
12300000000 -26.477711 -116.93413 -0.27230388 -75.336411 -0.26422337 48.903866 -25.379335 143.60587
12310000000 -26.564766 -121.11648 -0.27204689 -79.189201 -0.26373905 45.448402 -25.583838 140.94518
12320000000 -26.659067 -125.07426 -0.27209789 -83.039185 -0.26389211 42.000435 -25.774277 138.07642
12330000000 -26.753683 -128.95413 -0.27199644 -86.891487 -0.26410726 38.559399 -25.976858 135.11194
12340000000 -26.843361 -132.86819 -0.27210465 -90.73613 -0.26365995 35.118835 -26.176182 132.04105
12350000000 -26.944147 -136.85791 -0.27164727 -94.578499 -0.26388893 31.682226 -26.38192 128.93266
12360000000 -27.04949 -140.72391 -0.27180308 -98.414024 -0.26293352 28.241766 -26.600718 125.8877
12370000000 -27.162348 -144.72975 -0.2710537 -102.24551 -0.26274279 24.810501 -26.858208 122.9073
12380000000 -27.286219 -148.71227 -0.27050203 -106.07187 -0.26233253 21.383762 -27.138531 120.20087
12390000000 -27.416805 -152.92218 -0.26928994 -109.89413 -0.26200587 17.957348 -27.447693 117.72112
12400000000 -27.568657 -157.33838 -0.26889238 -113.71409 -0.26052153 14.53144 -27.7939 115.50018
12410000000 -27.766348 -161.85039 -0.26774281 -117.52927 -0.25894281 11.116269 -28.189625 113.47704
12420000000 -28.028994 -166.42548 -0.26669183 -121.34464 -0.25916967 7.6978006 -28.652201 111.72086
12430000000 -28.366358 -170.83989 -0.26581109 -125.15844 -0.25800824 4.2813826 -29.18177 110.07332
12440000000 -28.73381 -174.95201 -0.26471934 -128.96545 -0.25756693 0.86194855 -29.798395 108.55967
12450000000 -29.136341 -178.88104 -0.2648412 -132.77318 -0.25660077 -2.5531728 -30.486145 107.20766
12460000000 -29.585512 177.34016 -0.26410007 -136.57761 -0.25598302 -5.9729867 -31.263378 106.11559
12470000000 -30.057865 173.78299 -0.26433173 -140.39175 -0.25507933 -9.3809052 -32.111389 105.52808
12480000000 -30.565405 170.23926 -0.26395991 -144.19582 -0.25459453 -12.786773 -32.9314 105.0509
12490000000 -31.127943 166.91531 -0.26444235 -148.0024 -0.25423262 -16.193707 -33.795609 105.22726
12500000000 -31.737644 163.73083 -0.26478803 -151.80624 -0.25427946 -19.59675 -34.625832 105.5585
12510000000 -32.389034 160.6196 -0.26554412 -155.60783 -0.25397456 -22.99955 -35.481983 106.72486
12520000000 -33.115757 157.67444 -0.26541048 -159.40729 -0.25337437 -26.401859 -36.334484 108.69299
12530000000 -33.871082 154.37845 -0.26580498 -163.20625 -0.25326765 -29.800205 -37.135899 112.61044
12540000000 -34.775261 150.46625 -0.26532891 -167.0007 -0.2533136 -33.195717 -37.820618 118.48078
12550000000 -35.89291 146.35345 -0.2648302 -170.79584 -0.25282374 -36.584324 -38.146732 126.75323
12560000000 -37.374931 141.81023 -0.26448914 -174.58023 -0.25243756 -39.97485 -38.086647 135.6239
12570000000 -39.323231 137.31075 -0.26395324 -178.36818 -0.2522907 -43.36335 -37.586887 144.26106
12580000000 -41.857315 132.97115 -0.26312956 177.84807 -0.2516993 -46.750751 -36.86887 152.00246
12590000000 -45.550007 128.10345 -0.26270449 174.06848 -0.25215656 -50.133003 -35.964474 158.12155
12600000000 -52.487343 120.97334 -0.26150337 170.29173 -0.25230527 -53.516483 -35.025116 163.1747
12610000000 -64.489075 -34.150772 -0.26140243 166.52127 -0.25210199 -56.898273 -34.102753 167.17137
12620000000 -48.982891 -58.291855 -0.26097679 162.75191 -0.25237405 -60.270164 -33.217377 169.90549
12630000000 -43.829704 -64.946297 -0.26138806 158.98364 -0.25143564 -63.641594 -32.401985 171.54362
12640000000 -40.62373 -69.26606 -0.26146322 155.21977 -0.25271541 -67.013954 -31.680319 172.34624
12650000000 -38.380512 -73.38163 -0.26205432 151.46031 -0.25317702 -70.38485 -31.041019 172.19823
12660000000 -36.606483 -77.366539 -0.26234066 147.698 -0.25378457 -73.747078 -30.480654 171.44337
12670000000 -35.16552 -81.268219 -0.26271981 143.93857 -0.25483394 -77.107056 -29.991413 170.0565
12680000000 -33.989479 -85.217415 -0.26337519 140.18175 -0.25501615 -80.466507 -29.571167 168.33244
12690000000 -32.971466 -88.757431 -0.26407242 136.41882 -0.25638661 -83.819733 -29.1518 166.31042
12700000000 -32.074856 -91.994698 -0.2646957 132.66153 -0.25652722 -87.174492 -28.72134 163.93433
12710000000 -31.240459 -95.360802 -0.26604792 128.90274 -0.25649637 -90.526443 -28.275705 161.46861
12720000000 -30.468561 -98.833107 -0.2671383 125.15068 -0.25582713 -93.882477 -27.791214 158.62582
12730000000 -29.748718 -102.35072 -0.26793608 121.40014 -0.25682488 -97.238785 -27.302286 155.62032
12740000000 -29.082987 -105.85495 -0.26876158 117.65061 -0.25710887 -100.5825 -26.818731 152.58495
12750000000 -28.44433 -109.31494 -0.26953968 113.8997 -0.25774649 -103.92987 -26.357422 149.70782
12760000000 -27.797873 -113.12923 -0.27015951 110.15852 -0.25781894 -107.27609 -25.944729 146.94397
12770000000 -27.201719 -117.30373 -0.27059254 106.41877 -0.25908616 -110.62257 -25.571898 144.43924
12780000000 -26.670853 -121.64373 -0.27128923 102.68259 -0.26015872 -113.96042 -25.234007 142.25079
12790000000 -26.2122 -126.07458 -0.27199706 98.954185 -0.26052588 -117.29324 -24.94676 140.19203
12800000000 -25.803968 -130.38745 -0.27239218 95.225525 -0.26161194 -120.62487 -24.68782 138.13765
12810000000 -25.417727 -134.54395 -0.27310681 91.504547 -0.26220343 -123.95694 -24.472746 136.13963
12820000000 -25.046513 -138.77635 -0.27285543 87.790131 -0.26367912 -127.27766 -24.30687 134.04514
12830000000 -24.722355 -142.98438 -0.27415887 84.070198 -0.26481193 -130.59982 -24.181614 131.85178
12840000000 -24.423929 -147.12526 -0.27453664 80.359688 -0.26521149 -133.92064 -24.082771 129.50514
12850000000 -24.16128 -151.11307 -0.27531847 76.647202 -0.26582295 -137.23634 -23.994297 126.92387
12860000000 -23.908657 -154.92744 -0.27592322 72.938728 -0.26655576 -140.55664 -23.927359 124.22195
12870000000 -23.64554 -158.65286 -0.27663398 69.223 -0.26673028 -143.86787 -23.830116 121.3158
12880000000 -23.382252 -162.4303 -0.27756581 65.512184 -0.26766494 -147.17863 -23.704609 118.30177
12890000000 -23.131102 -166.25468 -0.2787756 61.80204 -0.26817372 -150.49391 -23.558556 115.17171
12900000000 -22.898285 -170.13411 -0.27966014 58.095573 -0.26898983 -153.80345 -23.390755 112.00034
12910000000 -22.670456 -174.02716 -0.28129369 54.390579 -0.26954335 -157.1106 -23.209242 108.91183
12920000000 -22.45282 -177.9617 -0.28217667 50.686672 -0.27102119 -160.41621 -23.013655 105.90662
12930000000 -22.251522 177.93968 -0.28282046 46.982735 -0.27186105 -163.71736 -22.825052 103.11949
12940000000 -22.074312 173.76335 -0.28434387 43.285042 -0.27304691 -167.01865 -22.643471 100.50475
12950000000 -21.917225 169.53772 -0.28511485 39.588448 -0.27450454 -170.32341 -22.489609 98.101303
12960000000 -21.77866 165.28839 -0.28533688 35.894402 -0.27647686 -173.62183 -22.359814 95.892509
12970000000 -21.665483 160.91904 -0.28620148 32.204269 -0.27628863 -176.91447 -22.254543 93.778358
12980000000 -21.569721 156.48416 -0.28641903 28.520346 -0.27653444 179.79344 -22.171083 91.732941
12990000000 -21.504353 151.99326 -0.2864275 24.837585 -0.27770144 176.50665 -22.135908 89.561638
13000000000 -21.47473 147.5676 -0.28638569 21.156288 -0.27851757 173.2265 -22.129435 87.288544
13010000000 -21.450874 143.24178 -0.28630954 17.470737 -0.27909282 169.94571 -22.158421 84.859566
13020000000 -21.438591 138.99687 -0.28616306 13.7922 -0.27891341 166.66859 -22.214821 82.260742
13030000000 -21.418915 134.78604 -0.28632042 10.114105 -0.27887157 163.39015 -22.280687 79.517982
13040000000 -21.395491 130.55533 -0.28605515 6.4386787 -0.27861542 160.11877 -22.329596 76.637085
13050000000 -21.37348 126.26273 -0.28651702 2.7650199 -0.27917272 156.84087 -22.355347 73.581184
13060000000 -21.344812 121.98867 -0.28701934 -0.90905166 -0.27979124 153.56898 -22.345034 70.470192
13070000000 -21.317799 117.74506 -0.28738174 -4.5783391 -0.28016999 150.29712 -22.31842 67.221222
13080000000 -21.273457 113.41225 -0.28845629 -8.243309 -0.28015003 147.0267 -22.269857 63.945549
13090000000 -21.228765 108.88507 -0.28923389 -11.9036 -0.28191978 143.76802 -22.213316 60.815853
13100000000 -21.199354 104.25754 -0.29025674 -15.560901 -0.28262526 140.5112 -22.147749 57.85154
13110000000 -21.186253 99.483711 -0.29138982 -19.215153 -0.28246611 137.24478 -22.087475 55.187935
13120000000 -21.199463 94.650497 -0.29244339 -22.875616 -0.28423232 133.98878 -22.031311 52.731819
13130000000 -21.236275 89.798897 -0.29311299 -26.53104 -0.28480044 130.72441 -22.004366 50.518234
13140000000 -21.300329 84.877365 -0.29356524 -30.187708 -0.28503013 127.47009 -22.00493 48.378754
13150000000 -21.396196 79.991928 -0.29401302 -33.840965 -0.285615 124.2174 -22.041616 46.268177
13160000000 -21.522394 75.125237 -0.2935656 -37.490856 -0.28554374 120.96582 -22.116121 44.129959
13170000000 -21.670404 70.33844 -0.29348084 -41.140297 -0.28443411 117.71913 -22.24099 41.893028
13180000000 -21.829439 65.635445 -0.29241765 -44.788654 -0.28413722 114.47423 -22.401308 39.441818
13190000000 -22.009192 60.978981 -0.29200232 -48.435642 -0.28296638 111.22547 -22.599239 36.797859
13200000000 -22.193609 56.316734 -0.29121438 -52.082226 -0.28087524 107.98523 -22.828297 33.961826
13210000000 -22.381567 51.687908 -0.28990382 -55.720432 -0.27963102 104.74043 -23.068941 30.862307
13220000000 -22.56741 46.959103 -0.28929895 -59.361591 -0.27862945 101.49304 -23.2855 27.54563
13230000000 -22.762646 42.116467 -0.28853816 -63.000072 -0.2775836 98.249229 -23.491753 24.174286
13240000000 -22.95318 37.127628 -0.28720853 -66.638107 -0.27717105 95.007614 -23.666962 20.605238
13250000000 -23.15727 31.907635 -0.28686145 -70.272423 -0.27615991 91.772049 -23.824816 17.092222
13260000000 -23.371181 26.48616 -0.28583229 -73.906708 -0.27510464 88.538177 -23.964542 13.634022
13270000000 -23.609123 20.891125 -0.28504366 -77.537209 -0.27365363 85.297165 -24.113503 10.489729
13280000000 -23.852739 15.059834 -0.28410548 -81.166832 -0.27284434 82.060066 -24.294512 7.6586289
13290000000 -24.118843 8.927371 -0.28278813 -84.798149 -0.2733207 78.823593 -24.47801 5.3957534
13300000000 -24.406977 2.5819335 -0.28187987 -88.427025 -0.27206564 75.599045 -24.711843 3.4019825
13310000000 -24.717758 -4.0394707 -0.28082126 -92.057961 -0.27092847 72.365944 -24.986959 1.8656259
13320000000 -25.061813 -10.897866 -0.2797766 -95.684357 -0.27009684 69.135521 -25.333448 0.54817808
13330000000 -25.446327 -17.964563 -0.27826545 -99.316757 -0.26859915 65.909348 -25.75045 -0.67931044
13340000000 -25.867472 -25.310024 -0.27718931 -102.94602 -0.26584682 62.677532 -26.273247 -1.8177755
13350000000 -26.323408 -32.742023 -0.27524549 -106.57236 -0.26434886 59.44281 -26.898354 -3.0046134
13360000000 -26.80155 -40.197632 -0.27297461 -110.20264 -0.26266187 56.215363 -27.633518 -4.1551433
13370000000 -27.280354 -47.832321 -0.27140176 -113.83218 -0.26044974 52.992554 -28.476664 -5.2440815
13380000000 -27.738657 -55.779896 -0.27019873 -117.46536 -0.25941128 49.76479 -29.383429 -6.1945696
13390000000 -28.181181 -64.182526 -0.26925328 -121.09677 -0.25740272 46.535748 -30.349236 -7.2086277
13400000000 -28.591534 -72.948021 -0.2678948 -124.72539 -0.25554895 43.307312 -31.404922 -8.1067581
13410000000 -28.948465 -82.189323 -0.26694191 -128.34871 -0.25340813 40.076855 -32.464123 -8.7413845
13420000000 -29.20904 -91.823586 -0.26552919 -131.97276 -0.25235075 36.849178 -33.560593 -8.654027
13430000000 -29.349424 -102.07539 -0.26485741 -135.60133 -0.25218326 33.620567 -34.644855 -7.197423
13440000000 -29.342924 -112.83282 -0.26369309 -139.22403 -0.25243846 30.406361 -35.655544 -3.5961382
13450000000 -29.208639 -123.96776 -0.2633366 -142.84692 -0.25157025 27.185839 -36.479275 2.9477761
13460000000 -28.944994 -135.2314 -0.26345223 -146.46391 -0.25070286 23.962666 -36.907669 12.584606
13470000000 -28.578167 -146.15477 -0.26265147 -150.08139 -0.2500411 20.736893 -36.685116 24.449121
13480000000 -28.104952 -156.72426 -0.26319861 -153.69824 -0.25000271 17.514481 -35.777615 35.678413
13490000000 -27.549498 -166.85538 -0.26347741 -157.31731 -0.24997646 14.296695 -34.507065 44.944839
13500000000 -26.963991 -176.54045 -0.2639817 -160.93039 -0.25064307 11.074894 -33.048107 51.651379
13510000000 -26.373501 174.27625 -0.26458308 -164.54738 -0.25152785 7.8614349 -31.620447 56.459835
13520000000 -25.767056 165.80286 -0.26538891 -168.14719 -0.25239995 4.6025791 -30.331837 59.851582
13530000000 -25.236746 157.84352 -0.26685834 -171.76114 -0.25386485 1.3918208 -29.124342 62.095844
